<Qucs Dataset 1.0.0>
<indep time 200>
  +0.00000000000000000000e+00
  +1.50753768844221095646e-07
  +3.01507537688442191293e-07
  +4.52261306532663260469e-07
  +6.03015075376884382586e-07
  +7.53768844221105504702e-07
  +9.04522613065326520939e-07
  +1.05527638190954764306e-06
  +1.20603015075376876517e-06
  +1.35678391959798988729e-06
  +1.50753768844221100940e-06
  +1.65829145728643213152e-06
  +1.80904522613065304188e-06
  +1.95979899497487416399e-06
  +2.11055276381909528611e-06
  +2.26130653266331640823e-06
  +2.41206030150753753034e-06
  +2.56281407035175865246e-06
  +2.71356783919597977458e-06
  +2.86432160804020089669e-06
  +3.01507537688442201881e-06
  +3.16582914572864314092e-06
  +3.31658291457286426304e-06
  +3.46733668341708538516e-06
  +3.61809045226130608376e-06
  +3.76884422110552720587e-06
  +3.91959798994974832799e-06
  +4.07035175879396945010e-06
  +4.22110552763819057222e-06
  +4.37185929648241169434e-06
  +4.52261306532663281645e-06
  +4.67336683417085393857e-06
  +4.82412060301507506069e-06
  +4.97487437185929618280e-06
  +5.12562814070351730492e-06
  +5.27638190954773842703e-06
  +5.42713567839195954915e-06
  +5.57788944723618067127e-06
  +5.72864321608040179338e-06
  +5.87939698492462291550e-06
  +6.03015075376884403762e-06
  +6.18090452261306515973e-06
  +6.33165829145728628185e-06
  +6.48241206030150740396e-06
  +6.63316582914572852608e-06
  +6.78391959798994964820e-06
  +6.93467336683417077031e-06
  +7.08542713567839189243e-06
  +7.23618090452261216751e-06
  +7.38693467336683328963e-06
  +7.53768844221105441174e-06
  +7.68844221105527638089e-06
  +7.83919597989949665598e-06
  +7.98994974874371862513e-06
  +8.14070351758793890021e-06
  +8.29145728643216086936e-06
  +8.44221105527638114444e-06
  +8.59296482412060311359e-06
  +8.74371859296482338867e-06
  +8.89447236180904535782e-06
  +9.04522613065326563291e-06
  +9.19597989949748760206e-06
  +9.34673366834170787714e-06
  +9.49748743718592984629e-06
  +9.64824120603015012137e-06
  +9.79899497487437039645e-06
  +9.94974874371859236560e-06
  +1.01005025125628126407e-05
  +1.02512562814070346098e-05
  +1.04020100502512548849e-05
  +1.05527638190954768541e-05
  +1.07035175879396971292e-05
  +1.08542713567839190983e-05
  +1.10050251256281393734e-05
  +1.11557788944723613425e-05
  +1.13065326633165816176e-05
  +1.14572864321608035868e-05
  +1.16080402010050238618e-05
  +1.17587939698492458310e-05
  +1.19095477386934661061e-05
  +1.20603015075376880752e-05
  +1.22110552763819083503e-05
  +1.23618090452261303195e-05
  +1.25125628140703505945e-05
  +1.26633165829145725637e-05
  +1.28140703517587928388e-05
  +1.29648241206030148079e-05
  +1.31155778894472350830e-05
  +1.32663316582914570522e-05
  +1.34170854271356773272e-05
  +1.35678391959798992964e-05
  +1.37185929648241195715e-05
  +1.38693467336683415406e-05
  +1.40201005025125618157e-05
  +1.41708542713567837849e-05
  +1.43216080402010040599e-05
  +1.44723618090452243350e-05
  +1.46231155778894463042e-05
  +1.47738693467336665793e-05
  +1.49246231155778885484e-05
  +1.50753768844221088235e-05
  +1.52261306532663307926e-05
  +1.53768844221105527618e-05
  +1.55276381909547730369e-05
  +1.56783919597989933120e-05
  +1.58291457286432135870e-05
  +1.59798994974874372503e-05
  +1.61306532663316575253e-05
  +1.62814070351758778004e-05
  +1.64321608040200980755e-05
  +1.65829145728643217387e-05
  +1.67336683417085420138e-05
  +1.68844221105527622889e-05
  +1.70351758793969825640e-05
  +1.71859296482412062272e-05
  +1.73366834170854265023e-05
  +1.74874371859296467773e-05
  +1.76381909547738670524e-05
  +1.77889447236180907156e-05
  +1.79396984924623109907e-05
  +1.80904522613065312658e-05
  +1.82412060301507515409e-05
  +1.83919597989949752041e-05
  +1.85427135678391954792e-05
  +1.86934673366834157543e-05
  +1.88442211055276360294e-05
  +1.89949748743718596926e-05
  +1.91457286432160799677e-05
  +1.92964824120603002427e-05
  +1.94472361809045205178e-05
  +1.95979899497487407929e-05
  +1.97487437185929644561e-05
  +1.98994974874371847312e-05
  +2.00502512562814050063e-05
  +2.02010050251256252814e-05
  +2.03517587939698489446e-05
  +2.05025125628140692197e-05
  +2.06532663316582894948e-05
  +2.08040201005025097698e-05
  +2.09547738693467334331e-05
  +2.11055276381909537081e-05
  +2.12562814070351739832e-05
  +2.14070351758793942583e-05
  +2.15577889447236179215e-05
  +2.17085427135678381966e-05
  +2.18592964824120584717e-05
  +2.20100502512562787468e-05
  +2.21608040201005024100e-05
  +2.23115577889447226851e-05
  +2.24623115577889429601e-05
  +2.26130653266331632352e-05
  +2.27638190954773868984e-05
  +2.29145728643216071735e-05
  +2.30653266331658274486e-05
  +2.32160804020100477237e-05
  +2.33668341708542713869e-05
  +2.35175879396984916620e-05
  +2.36683417085427119371e-05
  +2.38190954773869322122e-05
  +2.39698492462311558754e-05
  +2.41206030150753761505e-05
  +2.42713567839195964255e-05
  +2.44221105527638167006e-05
  +2.45728643216080369757e-05
  +2.47236180904522606389e-05
  +2.48743718592964809140e-05
  +2.50251256281407011891e-05
  +2.51758793969849214642e-05
  +2.53266331658291451274e-05
  +2.54773869346733654025e-05
  +2.56281407035175856776e-05
  +2.57788944723618059526e-05
  +2.59296482412060296159e-05
  +2.60804020100502498909e-05
  +2.62311557788944701660e-05
  +2.63819095477386904411e-05
  +2.65326633165829141043e-05
  +2.66834170854271343794e-05
  +2.68341708542713546545e-05
  +2.69849246231155749296e-05
  +2.71356783919597985928e-05
  +2.72864321608040188679e-05
  +2.74371859296482391430e-05
  +2.75879396984924594180e-05
  +2.77386934673366830812e-05
  +2.78894472361809033563e-05
  +2.80402010050251236314e-05
  +2.81909547738693439065e-05
  +2.83417085427135675697e-05
  +2.84924623115577878448e-05
  +2.86432160804020081199e-05
  +2.87939698492462283950e-05
  +2.89447236180904486700e-05
  +2.90954773869346723333e-05
  +2.92462311557788926083e-05
  +2.93969849246231128834e-05
  +2.95477386934673331585e-05
  +2.96984924623115568217e-05
  +2.98492462311557770968e-05
  +2.99999999999999973719e-05
</indep>
<dep V1.It time>
  -1.53375932307841418567e-02
  -1.54640983747799890674e-02
  -1.57383528196378061348e-02
  -1.61097763886886083395e-02
  -1.64764540145908439106e-02
  -1.67272598310894034246e-02
  -1.68503341656716792984e-02
  -1.67917325368625094950e-02
  -1.65579840265499267371e-02
  -1.61913348158822280320e-02
  -1.57596329431477708005e-02
  -1.53452473747037309443e-02
  -1.50321068221802699866e-02
  -1.48840894445055934442e-02
  -1.49280022300308460453e-02
  -1.51486849799249267273e-02
  -1.54936724949429616149e-02
  -1.58850539772714058340e-02
  -1.62358115170630618040e-02
  -1.64687075324426203393e-02
  -1.65319105421737611028e-02
  -1.64098261478756897447e-02
  -1.61256277724396365758e-02
  -1.57343044482524813121e-02
  -1.53120287354402452584e-02
  -1.49441787860225671486e-02
  -1.47090526237482494692e-02
  -1.46559773067626436527e-02
  -1.47934164186725378154e-02
  -1.50887837463554042722e-02
  -1.54762568883869740949e-02
  -1.58716860535737386284e-02
  -1.61899518781389133160e-02
  -1.63626120547777954839e-02
  -1.63526748588817827379e-02
  -1.61617704454204737241e-02
  -1.58285189183158016279e-02
  -1.54188607332703918329e-02
  -1.50146688777814431293e-02
  -1.47016501379241999736e-02
  -1.45480361649891008075e-02
  -1.45859334638264673961e-02
  -1.48052328088410685425e-02
  -1.51572387170795814387e-02
  -1.55657966772143364909e-02
  -1.59433074460298314368e-02
  -1.62098197075465424999e-02
  -1.63092251962725851011e-02
  -1.62209475443739828404e-02
  -1.59636734963281394506e-02
  -1.55897066177139269338e-02
  -1.51734915964857157433e-02
  -1.48008810945870778603e-02
  -1.45532355140844289754e-02
  -1.44847160825520449717e-02
  -1.46090808511333582198e-02
  -1.48982804443845880116e-02
  -1.52894177569608859246e-02
  -1.56989998761342570976e-02
  -1.60403121673136535297e-02
  -1.62415324235639299544e-02
  -1.62609087441514393868e-02
  -1.60952579458145637881e-02
  -1.57793585198060075381e-02
  -1.53769237574266012802e-02
  -1.49691529755173330374e-02
  -1.46425947236783430411e-02
  -1.44695964229413758656e-02
  -1.44877426365133694236e-02
  -1.46920855304438126993e-02
  -1.50378996476904520235e-02
  -1.54508284452391196628e-02
  -1.58433775119587970381e-02
  -1.61329776295335534930e-02
  -1.62590770783219533413e-02
  -1.61961687978172431956e-02
  -1.59586098127902122068e-02
  -1.55954325780969810938e-02
  -1.51792435334851712192e-02
  -1.47956932331211408332e-02
  -1.45286052875626507663e-02
  -1.44371907372463411517e-02
  -1.45407793735728412682e-02
  -1.48161541721738357347e-02
  -1.52036628693846508076e-02
  -1.56208734131987256322e-02
  -1.59796610415517854886e-02
  -1.62048634168961251667e-02
  -1.62500138675452793224e-02
  -1.61068307858638001817e-02
  -1.58060599478427564468e-02
  -1.54086397294482396747e-02
  -1.49944817626004294614e-02
  -1.46511688568150867662e-02
  -1.44551537664530400235e-02
  -1.44493499231316008952e-02
  -1.46342048283748266818e-02
  -1.49692545249021334575e-02
  -1.53825295446395806515e-02
  -1.57865973259564904008e-02
  -1.60964308359234711809e-02
  -1.62474816495233286007e-02
  -1.62091138371684012620e-02
  -1.59904727005139510321e-02
  -1.56371478839985832143e-02
  -1.52201564648248681422e-02
  -1.48248048576994934794e-02
  -1.45372800383220777964e-02
  -1.44215163816888963105e-02
  -1.45022986289184783321e-02
  -1.47613625718613708515e-02
  -1.51426777484248362149e-02
  -1.55648239373196457108e-02
  -1.59387737249701982867e-02
  -1.61862579816163636159e-02
  -1.62559862756033249309e-02
  -1.61346550965076399042e-02
  -1.58486215333364932611e-02
  -1.54561428849465526403e-02
  -1.50362888114098283004e-02
  -1.46770728273487773702e-02
  -1.44580731485787136736e-02
  -1.44277076729152960860e-02
  -1.45918457049175470663e-02
  -1.49144682094739973455e-02
  -1.53263164142752664199e-02
  -1.57398523443948272493e-02
  -1.60682150491081622568e-02
  -1.62429284415826560850e-02
  -1.62283839398443367752e-02
  -1.60290158906246475723e-02
  -1.56867132184241517279e-02
  -1.52703258514214606362e-02
  -1.48643752530939476930e-02
  -1.45566989933675269842e-02
  -1.44158808840242052413e-02
  -1.44724754604121721990e-02
  -1.47134108584282101428e-02
  -1.50864584263596460123e-02
  -1.55120219525895566837e-02
  -1.59001082716067956846e-02
  -1.61692733331657741147e-02
  -1.62637738140986795599e-02
  -1.61651234097906215670e-02
  -1.58949895918870133527e-02
  -1.55089215302133369423e-02
  -1.50842396744391427088e-02
  -1.47094986851270242284e-02
  -1.44676411109428016549e-02
  -1.44121854656047987397e-02
  -1.45544882171266994064e-02
  -1.48631447469171774217e-02
  -1.52716216593988627498e-02
  -1.56932629936630090028e-02
  -1.60394324625859202582e-02
  -1.62375896813808963393e-02
  -1.62473242923080185562e-02
  -1.60678837276339442353e-02
  -1.57374783844608651107e-02
  -1.53226440160097333171e-02
  -1.49070834442832141770e-02
  -1.45802096094767678902e-02
  -1.44149257716270750435e-02
  -1.44472643528178266298e-02
  -1.46693587209347029582e-02
  -1.50329333708770964545e-02
  -1.54602901486640964546e-02
  -1.58609806811101511359e-02
  -1.61508278002081145930e-02
  -1.62696726859660953379e-02
  -1.61938793933729778540e-02
  -1.59405771296587603358e-02
  -1.55621418653614368433e-02
  -1.51342912994366605994e-02
  -1.47454215829249390968e-02
  -1.44812231617307638626e-02
  -1.44004194815906660238e-02
  -1.45200050000584349186e-02
  -1.48133731414199429355e-02
  -1.52173006839394324430e-02
  -1.56456979202714910326e-02
  -1.60084886528388502247e-02
  -1.62297385112949825448e-02
  -1.62640073883767374840e-02
  -1.61054032554852170900e-02
  -1.57879988108228092036e-02
  -1.53761465180326135915e-02
  -1.49525032507589195063e-02
  -1.46073464723938013787e-02
  -1.44176008597774619330e-02
  -1.44249826473939260496e-02
  -1.46270266325972363164e-02
  -1.49796241891791952899e-02
  -1.54073498773059855416e-02
  -1.58195505901266575410e-02
  -1.61295274524625373291e-02
  -1.62728039760424228466e-02
  -1.62205833982736573329e-02
  -1.59852015005814244997e-02
  -1.56156499911272381165e-02
</dep>
<dep _net0.Vt time>
  +9.77235987378196924169e+00
  +7.52599113692246923790e+00
  +5.89406132949897543227e+00
  +5.10962136538255418117e+00
  +5.42968057123490233096e+00
  +6.61359891508113761915e+00
  +8.57198169895152162212e+00
  +1.08376146254302980765e+01
  +1.29318848727101372020e+01
  +1.44133413271875721051e+01
  +1.49691169988760179876e+01
  +1.44818458843977868611e+01
  +1.30536932048658744776e+01
  +1.09839507733991048610e+01
  +8.70848441606739775978e+00
  +6.70700336642283101440e+00
  +5.40187520995844394633e+00
  +5.06846260584920482728e+00
  +5.77732979138673474750e+00
  +7.37958597105943425731e+00
  +9.53851819395505273746e+00
  +1.17979681231636917005e+01
  +1.36814830219566232472e+01
  +1.47919718644886142300e+01
  +1.48940907960166395441e+01
  +1.39671470511009570004e+01
  +1.22051811921977435560e+01
  +9.97839410793824121981e+00
  +7.75623342518106806409e+00
  +6.00737149782247836782e+00
  +5.10115122518027508391e+00
  +5.22808243371268943633e+00
  +6.36285832347771407314e+00
  +8.26702710277287700080e+00
  +1.05394851464916996520e+01
  +1.27004373544501145687e+01
  +1.42937021949736315918e+01
  +1.49826842578001642181e+01
  +1.46219418585640994479e+01
  +1.32874927227846875155e+01
  +1.12599065213452913525e+01
  +8.96598389811472529232e+00
  +6.88934719382864013681e+00
  +5.46828629370875773930e+00
  +5.00276740033016587006e+00
  +5.59132430803545510400e+00
  +7.11037549025518611501e+00
  +9.24086653661629853218e+00
  +1.15336250523665881929e+01
  +1.35046497955507778244e+01
  +1.47376483900111878711e+01
  +1.49722307382991477454e+01
  +1.41589491687111284079e+01
  +1.24689999398089295113e+01
  +1.02575706266292687729e+01
  +7.99073407207087438309e+00
  +6.14651778363981105002e+00
  +5.11451561865446358013e+00
  +5.11188465731579100293e+00
  +6.14024324444271751844e+00
  +7.98401797396973034182e+00
  +1.02547691871765884741e+01
  +1.24732525382513266266e+01
  +1.41713726087192348757e+01
  +1.49904899231138042381e+01
  +1.47581109539352350879e+01
  +1.35233704991578136401e+01
  +1.15450679438386885067e+01
  +9.23970990882320819537e+00
  +7.09332254274510365377e+00
  +5.55886836077620216656e+00
  +4.96037120488576288579e+00
  +5.42383370647150098165e+00
  +6.85317532139591634177e+00
  +8.94791828582232717793e+00
  +1.12659413511427857202e+01
  +1.33171352897552051076e+01
  +1.46704541417891967114e+01
  +1.50403809750695423020e+01
  +1.43485748334543341542e+01
  +1.27401027138314475451e+01
  +1.05525991311760432012e+01
  +8.24725203246195981421e+00
  +6.31006891853119711300e+00
  +5.15035939313711299548e+00
  +5.01217001973837383844e+00
  +5.92549973376760519272e+00
  +7.69874513768098456268e+00
  +9.95927579252114902886e+00
  +1.22291745375480083169e+01
  +1.40297698731314763876e+01
  +1.49822439788187882215e+01
  +1.48850959233018684813e+01
  +1.37580621437762999903e+01
  +1.18382017107954489177e+01
  +9.52940710745674657289e+00
  +7.31836480317243243121e+00
  +5.67166898074355074755e+00
  +4.93688037750468033948e+00
  +5.26873417816768796484e+00
  +6.59842209394352163798e+00
  +8.64649133544025971787e+00
  +1.09821096268536209095e+01
  +1.31119620250569131059e+01
  +1.45861514951685684593e+01
  +1.50932605488886100176e+01
  +1.45263320798455346505e+01
  +1.30048770298933806799e+01
  +1.08488829231050107893e+01
  +8.51245871248738339432e+00
  +6.48821379814042220602e+00
  +5.20351510212381551668e+00
  +4.92956851098873816142e+00
  +5.72423448776818144523e+00
  +7.42166611292376732223e+00
  +9.66454403763671443528e+00
  +1.19789140170365762117e+01
  +1.38770699037331368686e+01
  +1.49588913212434899691e+01
  +1.49952691113815639312e+01
  +1.39794714521081058223e+01
  +1.21241407110227061850e+01
  +9.81947575862353616571e+00
  +7.55139830503184406041e+00
  +5.79826929950809955017e+00
  +4.93034684482348239953e+00
  +5.13086697707811367763e+00
  +6.35806115838780172567e+00
  +8.35422602163318650526e+00
  +1.06994637964357544035e+01
  +1.28974170279684834384e+01
  +1.44857900092966680461e+01
  +1.51294710578142623802e+01
  +1.46926149901918670082e+01
  +1.32669133339491729373e+01
  +1.11512076081376836356e+01
  +8.79132874846491496612e+00
  +6.68478437117096380149e+00
  +5.27621133604095682301e+00
  +4.86305035379799743822e+00
  +5.53321875230759285813e+00
  +7.14628620682349335880e+00
  +9.36276099136178707738e+00
  +1.17144233921637646034e+01
  +1.37063360673335310480e+01
  +1.49170821822570083270e+01
  +1.50909879705270846273e+01
  +1.41914723756504805863e+01
  +1.24079123634306380808e+01
  +1.01152624446340180242e+01
  +7.79694618301493491686e+00
  +5.94168208749016013570e+00
  +4.94149464378860781011e+00
  +5.00679334187914637511e+00
  +6.12528229796754075664e+00
  +8.06135524244120205140e+00
  +1.04085021994748441188e+01
  +1.26705509114273056070e+01
  +1.43697291769437658360e+01
  +1.51488302081080448147e+01
  +1.48428567437134741880e+01
  +1.35160933262854747738e+01
  +1.14470318530243151400e+01
  +9.07157127587277756220e+00
  +6.89026910940918302373e+00
  +5.36347145457457763484e+00
  +4.81363388018097637655e+00
  +5.35744198534855620153e+00
  +6.88113892664937232269e+00
  +9.06403878490187153716e+00
  +1.14455890529644204179e+01
  +1.35233750722449403980e+01
  +1.48589701954503183856e+01
  +1.51704249748593920089e+01
  +1.43921704270384438473e+01
  +1.26877921959051427336e+01
  +1.04153041248032582899e+01
  +8.05373448186229623502e+00
  +6.10112361468032116107e+00
  +4.96974321196181545446e+00
  +4.89841360439318584952e+00
  +5.90259986037618311627e+00
  +7.77161092948898613031e+00
  +1.01124566023009645477e+01
  +1.24313005292303913052e+01
  +1.42375526523788291655e+01
  +1.51510881517536422081e+01
  +1.49793903933601288969e+01
  +1.37587304458973047616e+01
  +1.17446024439987688481e+01
  +9.36119555608050291085e+00
  +7.11090548339365469133e+00
  +5.46864125412294388440e+00
  +4.78104924712158751987e+00
  +5.19403589458460324124e+00
  +6.62144236350927517520e+00
  +8.76289524686909970796e+00
  +1.11664856952839812720e+01
  +1.33251005643991362604e+01
  +1.47834061069268472011e+01
</dep>
<dep Output.Vt time>
  -2.27068075102272004528e-01
  -2.40320131528320057868e+00
  -3.87533138234742224881e+00
  -4.43934802053111088327e+00
  -3.89828016071023064626e+00
  -2.56029934411552773099e+00
  -5.22683351343021129765e-01
  +1.71287516900281566734e+00
  +3.66986554582284263404e+00
  +4.93172783831432859358e+00
  +5.22805467485724051357e+00
  +4.49254782848763589698e+00
  +2.87624605330034910367e+00
  +7.14897589189465776371e-01
  -1.53923384015707043204e+00
  -3.41376671828013034116e+00
  -4.51584094124569457307e+00
  -4.61547007968419542578e+00
  -3.69394394422472416295e+00
  -1.94724851971001466922e+00
  +2.55149292657394610728e-01
  +2.44571136554564461107e+00
  +4.16048494012379421747e+00
  +5.03589210574599555059e+00
  +4.88454735152942376430e+00
  +3.73732576429236473814e+00
  +1.83302376729417026979e+00
  -4.29548482465378356210e-01
  -2.57473562235184783020e+00
  -4.15141877377500190249e+00
  -4.82795656544916784725e+00
  -4.46336866226956541226e+00
  -3.13416482744462321364e+00
  -1.12105944842716276355e+00
  +1.15073233214889292242e+00
  +3.20047602840143952108e+00
  +4.59444261775740869780e+00
  +5.03714302915924605486e+00
  +4.43421390847550611625e+00
  +2.91193171337009637512e+00
  +7.89711853331116486743e-01
  -1.48633509442651856602e+00
  -3.43696529190239719043e+00
  -4.65108368355562973306e+00
  -4.87292738582948636861e+00
  -4.05602357892326104150e+00
  -2.37255142307248512168e+00
  -1.76811860287696021032e-01
  +2.06763269167041841001e+00
  +3.88641527773383899103e+00
  +4.89485651407477284636e+00
  +4.87948005443693411110e+00
  +3.84313744941824708690e+00
  +2.00367088530567549753e+00
  -2.52533125682283809965e-01
  -2.45020287463361352565e+00
  -4.12615480649653587619e+00
  -4.92665352005535517321e+00
  -4.68354350205007730068e+00
  -3.44722917259384331601e+00
  -1.47746601481236616848e+00
  +8.10375178791209904716e-01
